! MS46122B
! 12345/12345
! 1/28/2024 4:47:19 PM
! D:\PC DATA\DESKTOP\PROPOSAL\MATERIAL MEASUREMENT PY\2023-11-10\NRW.S2P
! CHANNEL.1
! TR.MEASUREMENT
! RAW.DATA
# GHZ S RI R 50.0
! FREQ.GHZ         S11RE         S11IM         S21RE         S21IM         S12RE         S12IM         S22RE         S22IM         
!; PortSelection: Port_12
   0.001000000    -0.0098935    0.0230667     0.1889389    0.1444989    -1.7308440   -1.2109820     0.6648751   -0.4649398 
   0.218495000    -0.0294247   -0.0526397     0.1865588    0.0418305    -0.5880045   -1.8654230    -0.6092182    0.0381007 
   0.435990000    -0.0221954    0.0597598     0.1711357   -0.0267313     0.7933314   -1.5346060     0.5419462    0.4182261 
   0.653485000     0.0668505    0.0033307     0.1801897   -0.1302338     1.6740700   -0.5463024    -0.0668940   -0.4674752 
   0.870980000     0.0008950   -0.0907234     0.0863370   -0.1985256     1.6329430    0.6712754    -0.4274924    0.1872333 
   1.088475000    -0.0871043    0.0921576    -0.0283701   -0.2559229     0.5254305    1.8125680     0.6567514    0.1305196 
   1.305970000     0.1030378    0.0043302    -0.1682772   -0.1789340    -0.4327030    1.8468740    -0.3843895   -0.1496122 
   1.523465000    -0.0082207   -0.0511967    -0.2566731   -0.0500791    -1.9196930    0.9296476     0.1458498    0.2210881 
   1.740960000    -0.0547134    0.0269420    -0.2428032    0.0656534    -2.2413450    0.3071232     0.1806989    0.0525912 
   1.958455000     0.0019378    0.0152286    -0.1400340    0.1778342    -1.6747530   -0.7944377     0.1109257   -0.1219151 
   2.175950000     0.0275187   -0.0002956    -0.0319743    0.1871499    -0.2687980   -1.6679210    -0.1975836    0.2186824 
   2.393445000    -0.0171030   -0.0181373     0.0896665    0.1831950     0.7307760   -1.6824860     0.3211366   -0.1303633 
   2.610940000     0.0018431   -0.0211688     0.0701439    0.1155352     1.3918660   -0.3704296    -0.1459159   -0.2536563 
   2.828435000     0.0166350    0.0800081    -0.0973001   -0.1570370     1.4502740    0.6280922     0.3804125   -0.3761967 
   3.045930000     0.0454016   -0.0487121    -0.1610521   -0.0893025     0.4430191    1.4037280    -0.5402777    0.1699130 
   3.263425000    -0.0259108   -0.0319526    -0.1858818    0.0384658    -0.5221876    1.5031540     0.2387020    0.1989743 
   3.480920000    -0.0602386    0.0218396    -0.1083949    0.1301632    -0.9473211    0.9742520    -0.0044973   -0.5415714 
   3.698415000     0.0749773    0.0538608    -0.0419293    0.1764287    -1.6086530    0.0894577    -0.1651326    0.5307040 
   3.915910000    -0.0118794   -0.0845781    -0.1488629   -0.0886962    -1.8495580   -0.7843852    -0.1696510    0.5399828 
   4.133405000    -0.1011992    0.0477080    -0.1548424    0.0236210    -0.7192905   -1.1266440     0.3489033   -0.1930036 
   4.350900000     0.1483892    0.0603068    -0.1397947    0.0937194     0.5065429   -1.2226660    -0.5424074   -0.2087799 
   4.568395000    -0.0105715   -0.1512706    -0.0689595    0.1013680     1.0107980   -0.7786747     0.3971608    0.1047830 
   4.785890000    -0.0674612    0.0509980     0.0199904    0.1483398     1.3235740    0.5707225    -0.2538725   -0.1575156 
   5.003385000     0.0543424   -0.0141101     0.0401767    0.1314515     0.5716617    1.2056210     0.0387331    0.2518813 
   5.220880000     0.0033135    0.0049180     0.0937264    0.0653286    -0.3390062    1.2536250    -0.2131682   -0.2840347 
   5.438375000    -0.0309437   -0.0256754     0.1319175    0.0359925    -1.3125460    0.9257212     0.1134838    0.2658972 
   5.655870000     0.0523672    0.0387666     0.1571190   -0.0459420    -1.4462990    0.1640998     0.1430061   -0.3676070 
   5.873365000    -0.0183189   -0.0598498     0.0599986   -0.0921919    -0.8074529   -1.0596150    -0.0880952    0.3174767 
   6.090860000     0.0519667    0.0076202     0.0438678   -0.1839287    -0.4665850   -1.6214410     0.3944880   -0.1552729 
   6.308355000     0.0136610    0.0047981    -0.0328678   -0.0793534     0.5777892   -1.1583460    -0.1056028   -0.0609489 
   6.525850000    -0.0410180   -0.0558605    -0.1222775   -0.1247990     1.1298900   -0.0378630    -0.0683650    0.4055650 
   6.743345000     0.0288526    0.0439963    -0.0955389   -0.0263796     1.1668250    0.7207168     0.2299299   -0.4394955 
   6.960840000     0.0489659   -0.0333136    -0.1567631    0.0501767     0.2074617    1.3541460    -0.3512313    0.3386007 
   7.178335000    -0.0529191   -0.0062693    -0.0728885    0.1027902    -0.3959750    1.8124140     0.4012060   -0.1020053 
   7.395830000    -0.0115174    0.0593715    -0.0154580    0.1516233    -0.9514064    0.9573464    -0.3154367   -0.1346409 
   7.613325000     0.0568175   -0.0823666     0.0693232    0.1265148    -1.4881290    0.0287854     0.1446573    0.2832662 
   7.830820000    -0.0709438   -0.0195181     0.1385550    0.0207631    -1.3620950   -0.6898455    -0.0834954   -0.1411182 
   8.048315000     0.0541739    0.0772672     0.1448704   -0.0082430    -0.6805885   -1.4103560    -0.0937301    0.2781289 
   8.265810000    -0.0148967   -0.0357200     0.0580129   -0.0752051    -0.0092511   -1.3534650    -0.1829979   -0.2208140 
   8.483305000    -0.0197697   -0.0184779     0.0722836   -0.1085619     0.6387199   -0.5616838     0.0143258    0.2216508 
   8.700800000     0.0219164    0.0465218    -0.0275210   -0.0922016     0.9155232    0.2203756     0.2467363   -0.3016619 
   8.918295000     0.0203718   -0.0610937    -0.0445756   -0.0801138     0.6485476    0.6886768    -0.4581715    0.3564726 
   9.135790000    -0.0498860    0.0459293    -0.0603399   -0.0396275    -0.1774025    0.8266056     0.6029022   -0.1588914 
   9.353285000     0.0445245   -0.0161728    -0.1025364   -0.0495447    -0.7668061    0.3989507    -0.6462078    0.0192198 
   9.570780000    -0.0195271   -0.0151763    -0.1001718    0.0447220    -0.9520202   -0.5077869     0.1676876    0.2600643 
   9.788275000     0.0055290    0.0290673    -0.0718908    0.0890640    -0.9402592   -1.1335720    -0.1143116   -0.6619235 
  10.005770000     0.0253561   -0.0122210    -0.0526879    0.1098078    -0.1323676   -1.0684620    -0.2108782    0.1688726 
  10.223265000    -0.0513843   -0.0378389     0.0666383    0.0967269     0.6192515   -0.8847188     0.4062450   -0.1316008 
  10.440760000     0.0066864    0.0268666     0.1081935    0.0797534     1.0161910   -0.2889929    -0.2458354   -0.2327377 
  10.658255000     0.0358901    0.0190398     0.0849079   -0.0102798     1.1087790    0.4889420     0.2042393    0.4846424 
  10.875750000     0.0124095   -0.0703367     0.1205880   -0.0378874     0.7571707    0.6778417    -0.0520876   -0.5022118 
  11.093245000    -0.0852956    0.1037769     0.0410900   -0.0906291    -0.0276305    0.7070719    -0.1507882    0.4484956 
  11.310740000     0.1301653   -0.0289786    -0.0006640   -0.1107701    -0.8773355    0.2926721     0.2681300   -0.4304793 
  11.528235000    -0.0390458   -0.0459828    -0.0376506   -0.0867810    -1.0035280   -0.3563593    -0.3349226    0.2472181 
  11.745730000    -0.0425356    0.0672534    -0.0673001   -0.1176695    -1.0187030   -1.0045180     0.4057896   -0.3790034 
  11.963225000     0.0828410   -0.0255440    -0.1943740    0.0042025    -0.4287291   -0.9907110    -0.3658856    0.0657404 
  12.180720000    -0.0680895   -0.0378226    -0.1425552    0.1136879     0.6943973   -0.8484885     0.5629357    0.2728995 
  12.398215000     0.0345692    0.0349917    -0.0382894    0.1377927     1.4576120   -0.4250080    -0.5662676   -0.2612523 
  12.615710000    -0.0340188   -0.0122223     0.0079992    0.1687571     1.3260760   -0.0711583     0.5483555    0.4521314 
  12.833205000     0.0711105   -0.0398229     0.2023445   -0.3227448     2.7393830    1.6188270    -0.6010619   -0.1762945 
  13.050700000     0.0422910    0.0381982    -0.0461606   -0.4720410     1.4356200    2.6801700    -0.4350031    0.4147417 
  13.268195000    -0.0665928    0.0189051    -0.2119667   -0.3749387    -0.4264541    2.4223040     0.7248401   -0.4376098 
  13.485690000     0.0877640    0.0358555    -0.3692551   -0.1076030    -2.1698600    1.3757490    -0.8203579    0.4611000 
  13.703185000     0.0711105   -0.0398229     0.2023445   -0.3227448     2.7393830    1.6188270    -0.6010619   -0.1762945 
  13.920680000     0.0422910    0.0381982    -0.0461606   -0.4720410     1.4356200    2.6801700    -0.4350031    0.4147417 
  14.138175000    -0.0665928    0.0189051    -0.2119667   -0.3749387    -0.4264541    2.4223040     0.7248401   -0.4376098 
  14.355670000     0.0877640    0.0358555    -0.3692551   -0.1076030    -2.1698600    1.3757490    -0.8203579    0.4611000 
  14.573165000    -0.0737260   -0.0653011    -0.3554735   -0.0025442    -2.5552530    0.0110147     0.9989205   -0.0731775 
  14.790660000    -0.0240364    0.0418358    -0.2864333    0.2039578    -1.7271350   -1.3654900    -0.7060663   -0.2062266 
  15.008155000     0.0561788    0.1078513    -0.2222945    0.3285036    -0.0047199   -2.0083040     0.6122856    1.0636580 
  15.225650000     0.0352446   -0.2257113     0.0011336    0.3312407     1.7943590   -1.9008620    -0.4994412   -1.3357810 
  15.443145000    -0.1521818    0.1911650     0.2247236    0.3471019     2.3483450   -0.6888512    -0.1623877    1.5330390 
  15.660640000     0.2900160   -0.0294736     0.3516753    0.1967567     2.3538200    0.7648772     0.2346988   -1.4048730 
  15.878135000    -0.1927583   -0.1015449     0.4008088   -0.1495713     0.9856992    2.0585430    -0.2075353    1.0147140 
  16.095630000     0.0727284    0.1023261     0.3039375   -0.2824745    -0.5467909    2.5521760     0.3111275   -0.5038378 
  16.313125000     0.0494169   -0.0206268     0.0782437   -0.3859026    -2.1018580    1.6895910    -0.0470274   -0.2981209 
  16.530620000    -0.0210125   -0.0293923    -0.1953247   -0.4755785    -2.8612110    0.3001677     0.1005001    0.2191426 
  16.748115000     0.0138196   -0.0408300    -0.3708756   -0.1967593    -2.2649180   -1.3789750     0.3754029   -0.0069353 
  16.965610000    -0.0005968    0.0862203    -0.3812340    0.0187900    -0.4980423   -2.4883720    -0.9161716   -0.1556719 
  17.183105000     0.0232624   -0.1194127    -0.3777648    0.1232952     1.4939730   -2.4399950     0.9356565    0.2189161 
  17.400600000    -0.0099177    0.1439781    -0.2463343    0.4353542     2.7372650   -1.5127880    -0.9971392    0.1729032 
  17.618095000     0.0054142   -0.1151441     0.0670808    0.4324007     2.9212420    0.3330189     0.6627468   -0.5370460 
  17.835590000    -0.0533131    0.0262593     0.2491513    0.3156220     1.5701640    2.0137420    -0.6271109   -0.2483641 
  18.053085000     0.1228298    0.0621482     0.3419538    0.1536649    -0.3243632    3.0774890     0.9611393    0.1363152 
  18.270580000    -0.0408854   -0.0915889     0.4273168   -0.1351142    -1.8179860    2.5466700    -0.6648968   -0.2945877 
  18.488075000    -0.1138904    0.0670826     0.1814983   -0.2695183    -2.0970520    1.2252690     0.2260070    1.0046780 
  18.705570000     0.0932399    0.0629041     0.0698746   -0.2619775    -1.7233360   -0.7687537     0.0046298   -0.8713357 
  18.923065000     0.0057605   -0.1450258    -0.0735902   -0.2371866    -0.7512612   -1.8677050    -0.2869458    1.0092210 
  19.140560000    -0.0821562    0.0955026    -0.1819921   -0.2730425     0.6578518   -2.1110670     0.1781470   -0.4799280 
  19.358055000     0.0334787    0.0430429    -0.2960242   -0.0378949     1.4808130   -1.2339540    -0.0931894   -0.1818088 
  19.575550000    -0.0284056   -0.0913464    -0.2877522    0.0678015     2.0014020    0.1950525     0.1041945    0.2944410 
  19.793045000     0.0177459    0.0288247    -0.2242213    0.1935796     1.5947300    1.8098200     0.2180670    0.0153625 
  20.010540000    -0.0514184   -0.0023743    -0.0685147    0.3676225     0.3229197    2.9626170    -0.6093919   -0.2400213 
  20.228035000     0.0605922    0.0317147     0.1923348    0.3480304    -0.8729972    2.7398760     0.8992257    0.1750614 
  20.445530000    -0.0434755   -0.0273657     0.2608437    0.1246538    -1.9003980    1.2208110    -0.4941246   -0.0478524 
  20.663025000     0.0268761   -0.0160426     0.3071882    0.0128973    -2.3575470   -0.6722911     0.2138540    0.1447210 
  20.880520000    -0.0422618    0.0026119     0.3199259   -0.1122232    -1.4940480   -2.1151520    -0.3959565   -0.2894033 
  21.098015000     0.0050254    0.0570956     0.1660081   -0.2927264     0.1188873   -2.5751600     0.3958219    0.1837985 
  21.315510000    -0.0020403   -0.0541414     0.0274817   -0.3079869     1.4606110   -1.7462210    -0.3536416   -0.3031372 
  21.533005000    -0.0255574   -0.0207643    -0.1558685   -0.2991637     2.3043650    0.0293803     0.1411376    0.5782136 
  21.750500000    -0.0136902    0.0687791    -0.2228225   -0.1795720     2.0694940    1.7503040     0.3342671   -0.4757718 
  21.967995000     0.0458527   -0.0342156    -0.3301249    0.0899581     0.9150544    2.7002310    -0.6775607    0.7201480 
  22.185490000    -0.0299189   -0.0369727    -0.2361515    0.1336519    -0.8075985    2.3010440     0.3077531   -0.0298348 
  22.402985000    -0.0492530    0.0425007    -0.0739625    0.2662419    -2.2146050    1.6803310    -0.2257494   -0.7417855 
  22.620480000     0.0819533   -0.0126001     0.0602621    0.2393315    -2.1732050    0.2948277    -0.1144044    0.7606616 
  22.837975000    -0.0098935    0.0230667     0.1889389    0.1444989    -1.7308440   -1.2109820     0.6648751   -0.4649398 
  23.055470000    -0.0294247   -0.0526397     0.1865588    0.0418305    -0.5880045   -1.8654230    -0.6092182    0.0381007 
  23.272965000    -0.0221954    0.0597598     0.1711357   -0.0267313     0.7933314   -1.5346060     0.5419462    0.4182261 
  23.490460000     0.0668505    0.0033307     0.1801897   -0.1302338     1.6740700   -0.5463024    -0.0668940   -0.4674752 
  23.707955000     0.0008950   -0.0907234     0.0863370   -0.1985256     1.6329430    0.6712754    -0.4274924    0.1872333 
  23.925450000    -0.0871043    0.0921576    -0.0283701   -0.2559229     0.5254305    1.8125680     0.6567514    0.1305196 
  24.142945000     0.1030378    0.0043302    -0.1682772   -0.1789340    -0.4327030    1.8468740    -0.3843895   -0.1496122 
  24.360440000    -0.0082207   -0.0511967    -0.2566731   -0.0500791    -1.9196930    0.9296476     0.1458498    0.2210881 
  24.577935000    -0.0547134    0.0269420    -0.2428032    0.0656534    -2.2413450    0.3071232     0.1806989    0.0525912 
  24.795430000     0.0019378    0.0152286    -0.1400340    0.1778342    -1.6747530   -0.7944377     0.1109257   -0.1219151 
  25.012925000     0.0275187   -0.0002956    -0.0319743    0.1871499    -0.2687980   -1.6679210    -0.1975836    0.2186824 
  25.230420000    -0.0171030   -0.0181373     0.0896665    0.1831950     0.7307760   -1.6824860     0.3211366   -0.1303633 
  25.447915000     0.0018431   -0.0211688     0.0701439    0.1155352     1.3918660   -0.3704296    -0.1459159   -0.2536563 
  25.665410000     0.0166350    0.0800081    -0.0973001   -0.1570370     1.4502740    0.6280922     0.3804125   -0.3761967 
  25.882905000     0.0454016   -0.0487121    -0.1610521   -0.0893025     0.4430191    1.4037280    -0.5402777    0.1699130 
  26.100400000    -0.0259108   -0.0319526    -0.1858818    0.0384658    -0.5221876    1.5031540     0.2387020    0.1989743 
  26.317895000    -0.0602386    0.0218396    -0.1083949    0.1301632    -0.9473211    0.9742520    -0.0044973   -0.5415714 
  26.535390000     0.0749773    0.0538608    -0.0419293    0.1764287    -1.6086530    0.0894577    -0.1651326    0.5307040 
  26.752885000    -0.0118794   -0.0845781    -0.1488629   -0.0886962    -1.8495580   -0.7843852    -0.1696510    0.5399828 
  26.970380000    -0.1011992    0.0477080    -0.1548424    0.0236210    -0.7192905   -1.1266440     0.3489033   -0.1930036 
  27.187875000     0.1483892    0.0603068    -0.1397947    0.0937194     0.5065429   -1.2226660    -0.5424074   -0.2087799 
  27.405370000    -0.0105715   -0.1512706    -0.0689595    0.1013680     1.0107980   -0.7786747     0.3971608    0.1047830 
  27.622865000    -0.0674612    0.0509980     0.0199904    0.1483398     1.3235740    0.5707225    -0.2538725   -0.1575156 
  27.840360000     0.0543424   -0.0141101     0.0401767    0.1314515     0.5716617    1.2056210     0.0387331    0.2518813 
  28.057855000     0.0033135    0.0049180     0.0937264    0.0653286    -0.3390062    1.2536250    -0.2131682   -0.2840347 
  28.275350000    -0.0309437   -0.0256754     0.1319175    0.0359925    -1.3125460    0.9257212     0.1134838    0.2658972 
  28.492845000     0.0523672    0.0387666     0.1571190   -0.0459420    -1.4462990    0.1640998     0.1430061   -0.3676070 
  28.710340000    -0.0183189   -0.0598498     0.0599986   -0.0921919    -0.8074529   -1.0596150    -0.0880952    0.3174767 
  28.927835000     0.0519667    0.0076202     0.0438678   -0.1839287    -0.4665850   -1.6214410     0.3944880   -0.1552729 
  29.145330000     0.0136610    0.0047981    -0.0328678   -0.0793534     0.5777892   -1.1583460    -0.1056028   -0.0609489 
  29.362825000    -0.0410180   -0.0558605    -0.1222775   -0.1247990     1.1298900   -0.0378630    -0.0683650    0.4055650 
  29.580320000     0.0288526    0.0439963    -0.0955389   -0.0263796     1.1668250    0.7207168     0.2299299   -0.4394955 
  29.797815000     0.0489659   -0.0333136    -0.1567631    0.0501767     0.2074617    1.3541460    -0.3512313    0.3386007 
  30.015310000    -0.0529191   -0.0062693    -0.0728885    0.1027902    -0.3959750    1.8124140     0.4012060   -0.1020053 
  30.232805000    -0.0115174    0.0593715    -0.0154580    0.1516233    -0.9514064    0.9573464    -0.3154367   -0.1346409 
  30.450300000     0.0568175   -0.0823666     0.0693232    0.1265148    -1.4881290    0.0287854     0.1446573    0.2832662 
  30.667795000    -0.0709438   -0.0195181     0.1385550    0.0207631    -1.3620950   -0.6898455    -0.0834954   -0.1411182 
  30.885290000     0.0541739    0.0772672     0.1448704   -0.0082430    -0.6805885   -1.4103560    -0.0937301    0.2781289 
  31.102785000    -0.0148967   -0.0357200     0.0580129   -0.0752051    -0.0092511   -1.3534650    -0.1829979   -0.2208140 
  31.320280000    -0.0197697   -0.0184779     0.0722836   -0.1085619     0.6387199   -0.5616838     0.0143258    0.2216508 
  31.537775000     0.0219164    0.0465218    -0.0275210   -0.0922016     0.9155232    0.2203756     0.2467363   -0.3016619 
  31.755270000     0.0203718   -0.0610937    -0.0445756   -0.0801138     0.6485476    0.6886768    -0.4581715    0.3564726 
  31.972765000    -0.0498860    0.0459293    -0.0603399   -0.0396275    -0.1774025    0.8266056     0.6029022   -0.1588914 
  32.190260000     0.0445245   -0.0161728    -0.1025364   -0.0495447    -0.7668061    0.3989507    -0.6462078    0.0192198 
  32.407755000    -0.0195271   -0.0151763    -0.1001718    0.0447220    -0.9520202   -0.5077869     0.1676876    0.2600643 
  32.625250000     0.0055290    0.0290673    -0.0718908    0.0890640    -0.9402592   -1.1335720    -0.1143116   -0.6619235 
  32.842745000     0.0253561   -0.0122210    -0.0526879    0.1098078    -0.1323676   -1.0684620    -0.2108782    0.1688726 
  33.060240000    -0.0513843   -0.0378389     0.0666383    0.0967269     0.6192515   -0.8847188     0.4062450   -0.1316008 
  33.277735000     0.0066864    0.0268666     0.1081935    0.0797534     1.0161910   -0.2889929    -0.2458354   -0.2327377 
  33.495230000     0.0358901    0.0190398     0.0849079   -0.0102798     1.1087790    0.4889420     0.2042393    0.4846424 
  33.712725000     0.0124095   -0.0703367     0.1205880   -0.0378874     0.7571707    0.6778417    -0.0520876   -0.5022118 
  33.930220000    -0.0852956    0.1037769     0.0410900   -0.0906291    -0.0276305    0.7070719    -0.1507882    0.4484956 
