#  HZ   S   RI   R     50.00 
! Rohde & Schwarz Vector Network Analyzer 
! Rohde-Schwarz,ZNB20-2Port,1334333062101703,3.32
! Created: UTC 4/26/2022, 3:18:40 PM
! freq[Hz]                re:S11                  im:S11                  re:S21                  im:S21                  re:S12                  im:S12                  re:S22                  im:S22
 8.200000000000000E9     1.292928409606156E-1    5.664892054806706E-1   -7.705911754184959E-1    2.079621498679500E-1   -7.689682607802745E-1    2.094079371325260E-1    1.536973752842901E-1    5.761249360267037E-1
 8.221000000000000E9     1.385117774326035E-1    5.622879809501957E-1   -7.675599023534513E-1    2.219303438209287E-1   -7.650353334248999E-1    2.225168446184921E-1    1.634222318752593E-1    5.721667463048119E-1
 8.242000000000000E9     1.487369047727776E-1    5.575143557054293E-1   -7.629915525608129E-1    2.355541402094420E-1   -7.618522174886704E-1    2.357557330243232E-1    1.726286972622428E-1    5.679176557856687E-1
 8.263000000000000E9     1.582717729980394E-1    5.533355142444439E-1   -7.604185780488887E-1    2.481521530688894E-1   -7.590914842158301E-1    2.497358795922715E-1    1.828641078565954E-1    5.639819858762546E-1
 8.284000000000000E9     1.680687296591500E-1    5.493124229995380E-1   -7.569121458770600E-1    2.633623371889214E-1   -7.549723994630259E-1    2.643939196040360E-1    1.927249045216283E-1    5.598205181797999E-1
 8.305000000000000E9     1.771538495600331E-1    5.447319256554500E-1   -7.527763071957705E-1    2.765837830501898E-1   -7.503168174540407E-1    2.781543763227181E-1    2.021980884464476E-1    5.557693263761518E-1
 8.326000000000000E9     1.857198688121209E-1    5.402278494634731E-1   -7.469575787577589E-1    2.893044193873491E-1   -7.454736460499872E-1    2.900584053351297E-1    2.104843322281392E-1    5.506523139389199E-1
 8.347000000000000E9     1.957626098746173E-1    5.353664340682229E-1   -7.433691334527078E-1    3.019714619342957E-1   -7.416281490285948E-1    3.034548812298071E-1    2.204694568278522E-1    5.455355150995488E-1
 8.368000000000000E9     2.048314491754579E-1    5.310050369399311E-1   -7.394559485882635E-1    3.149747389385346E-1   -7.379709730402820E-1    3.169380722014891E-1    2.304149551008749E-1    5.407905099494819E-1
 8.389000000000000E9     2.140073674069536E-1    5.267333622765566E-1   -7.348761259425332E-1    3.285446808045009E-1   -7.315208023593314E-1    3.309405246058704E-1    2.394993290132727E-1    5.353262040785497E-1
 8.410000000000000E9     2.217906301778907E-1    5.218410525142488E-1   -7.287544659988235E-1    3.417525370568859E-1   -7.256370912282089E-1    3.437945340806352E-1    2.487338447828746E-1    5.304729336063180E-1
 8.431000000000000E9     2.304598634048323E-1    5.173691934750984E-1   -7.231303477572715E-1    3.529885254842549E-1   -7.202505860910687E-1    3.544239721476004E-1    2.563300350075699E-1    5.253136231500515E-1
 8.452000000000000E9     2.394841655901341E-1    5.119973618165236E-1   -7.177158321341982E-1    3.655250893941211E-1   -7.164402877828875E-1    3.667169245765087E-1    2.656349183282269E-1    5.191602179071788E-1
 8.473000000000000E9     2.482858526435849E-1    5.071883439071222E-1   -7.130927832304845E-1    3.784980892211586E-1   -7.110375443793679E-1    3.811003768910042E-1    2.741851619894756E-1    5.132403533287345E-1
 8.494000000000000E9     2.553034135318373E-1    5.025812156253731E-1   -7.074266416838867E-1    3.919764180241187E-1   -7.033685389804391E-1    3.949014150570433E-1    2.832793867470554E-1    5.075589067629511E-1
 8.515000000000000E9     2.636178905760595E-1    4.982239055014452E-1   -6.992438422875591E-1    4.036485166226129E-1   -6.964174649677662E-1    4.039276899749809E-1    2.915262320255818E-1    5.021750480213424E-1
 8.536000000000000E9     2.718250911391173E-1    4.930925758027595E-1   -6.932566543188883E-1    4.143650404306587E-1   -6.914039790706797E-1    4.149972226044530E-1    2.991428047635613E-1    4.963607330944048E-1
 8.557000000000000E9     2.796373765700912E-1    4.872595601317871E-1   -6.887359251590663E-1    4.262820232084564E-1   -6.869592476688533E-1    4.275039729961292E-1    3.074266391397152E-1    4.896799348146424E-1
 8.578000000000000E9     2.885117535186717E-1    4.822668399801952E-1   -6.832981386816507E-1    4.397606242834277E-1   -6.797191719238430E-1    4.415596776726592E-1    3.158160549061233E-1    4.836843565157242E-1
 8.599000000000000E9     2.955567001271000E-1    4.778427963275024E-1   -6.750131913926795E-1    4.524950580851859E-1   -6.705368867723261E-1    4.534514157707849E-1    3.248644829765716E-1    4.762104291212698E-1
 8.620000000000000E9     3.029394815464219E-1    4.732742233124017E-1   -6.666416307054683E-1    4.620939673333104E-1   -6.638499821237133E-1    4.618592494858116E-1    3.318839149905521E-1    4.698132945424915E-1
 8.641000000000000E9     3.106185315497223E-1    4.679124692161999E-1   -6.604455648969435E-1    4.712097054083745E-1   -6.590884119282672E-1    4.721677558264381E-1    3.391037983681134E-1    4.638793008514903E-1
 8.662000000000000E9     3.187673560562767E-1    4.612687821116112E-1   -6.543917525325252E-1    4.834828817615193E-1   -6.531322031309744E-1    4.858521316722832E-1    3.460766156717365E-1    4.558127221473013E-1
 8.683000000000000E9     3.251627453244204E-1    4.564856842573349E-1   -6.478639125872125E-1    4.973736665113097E-1   -6.437177795862576E-1    4.988985032548822E-1    3.534042620759425E-1    4.491061455497571E-1
 8.704000000000000E9     3.326276423463504E-1    4.507591303930227E-1   -6.375529409782268E-1    5.096304637834628E-1   -6.337703534810255E-1    5.080385996121146E-1    3.619219462225685E-1    4.417372687951586E-1
 8.725000000000000E9     3.391907660010645E-1    4.464043910000873E-1   -6.288188046414722E-1    5.180177834331462E-1   -6.273206819341424E-1    5.162732549192001E-1    3.687817185258296E-1    4.344417041090948E-1
 8.746000000000000E9     3.471478811158008E-1    4.397513204551988E-1   -6.221358996685384E-1    5.277192192465134E-1   -6.219087130513052E-1    5.271573778844340E-1    3.742736530492848E-1    4.277649313005747E-1
 8.767000000000000E9     3.534123098375912E-1    4.333378269482530E-1   -6.160194265845710E-1    5.391016711730532E-1   -6.150207135854250E-1    5.409965338929639E-1    3.807319294274456E-1    4.204964239863301E-1
 8.788000000000000E9     3.596299973128056E-1    4.274742238181320E-1   -6.073624728262481E-1    5.525504258963855E-1   -6.038336618883546E-1    5.525681035090331E-1    3.878833400543341E-1    4.124231772554783E-1
 8.809000000000000E9     3.664475709620506E-1    4.222182116028947E-1   -5.962805126165568E-1    5.629034613486892E-1   -5.935433407698708E-1    5.604878243121483E-1    3.948570164774352E-1    4.037432551830409E-1
 8.830000000000000E9     3.726301008148821E-1    4.170577197635804E-1   -5.872920027896361E-1    5.713511469711303E-1   -5.877258386681496E-1    5.676850835308354E-1    4.013012559231302E-1    3.970140405997912E-1
 8.851000000000000E9     3.789808352067864E-1    4.102407270611710E-1   -5.803610784650670E-1    5.798713648568408E-1   -5.810909753178173E-1    5.790479019878101E-1    4.063560607685300E-1    3.888430709622239E-1
 8.872000000000000E9     3.847019388340863E-1    4.030608613693030E-1   -5.734589316934899E-1    5.920357370542804E-1   -5.719694544649153E-1    5.924829333705088E-1    4.110308984301586E-1    3.811037881662676E-1
 8.893000000000000E9     3.902837602898528E-1    3.975204798352228E-1   -5.632173853783846E-1    6.038430538068225E-1   -5.595075261340273E-1    6.027620459056200E-1    4.180019245502257E-1    3.736202139837449E-1
 8.914000000000000E9     3.962403530464818E-1    3.915552231998448E-1   -5.515018157211077E-1    6.130981140218567E-1   -5.498001232154470E-1    6.093446053808285E-1    4.242953974270631E-1    3.650908756379878E-1
 8.935000000000000E9     4.019389410867849E-1    3.851548423654417E-1   -5.427132985740044E-1    6.199045115689025E-1   -5.433424575535799E-1    6.170291619392591E-1    4.289419340011976E-1    3.569905821093381E-1
 8.956000000000000E9     4.072890627467479E-1    3.778858814580585E-1   -5.359836431582963E-1    6.285256260026358E-1   -5.363572259058400E-1    6.286440915452128E-1    4.341658229903147E-1    3.490054213628707E-1
 8.977000000000000E9     4.125141969455892E-1    3.707363605084641E-1   -5.262936864050709E-1    6.403280095072444E-1   -5.250373773774240E-1    6.410465292611789E-1    4.388064923987509E-1    3.413449628724701E-1
 8.998000000000000E9     4.176642776401686E-1    3.646194233239508E-1   -5.144375018077076E-1    6.517231884387152E-1   -5.120132789757030E-1    6.486023759129482E-1    4.433778374562262E-1    3.318555155438072E-1
 9.019000000000000E9     4.226104988292684E-1    3.588526395926765E-1   -5.023717820585151E-1    6.602271136802927E-1   -5.024926695496311E-1    6.542898624075801E-1    4.475534398732941E-1    3.233245601953160E-1
 9.040000000000000E9     4.281397539989084E-1    3.523153657915821E-1   -4.926111302044220E-1    6.663442642409915E-1   -4.960260132702787E-1    6.635987462533119E-1    4.526702240555706E-1    3.148978558779406E-1
 9.061000000000000E9     4.334173976496879E-1    3.446308631993645E-1   -4.847970286804943E-1    6.753758788823296E-1   -4.863188311510820E-1    6.741109605189817E-1    4.563569918542504E-1    3.069922242931133E-1
 9.082000000000000E9     4.372725285547368E-1    3.369387554770428E-1   -4.735653388134310E-1    6.858966702247905E-1   -4.741011170489156E-1    6.848264870839067E-1    4.603675535095665E-1    2.986964340172564E-1
 9.103000000000000E9     4.409432334917687E-1    3.298650588581460E-1   -4.610409372290400E-1    6.959504587539536E-1   -4.602101881889328E-1    6.913398394814674E-1    4.635525239423941E-1    2.902272058723530E-1
 9.124000000000000E9     4.454801279568191E-1    3.229213730707378E-1   -4.485376639365182E-1    7.023136314302812E-1   -4.509403330309876E-1    6.965970635943276E-1    4.671241398368335E-1    2.818655917172806E-1
 9.145000000000000E9     4.507505413472115E-1    3.155048092567639E-1   -4.381011302802367E-1    7.081711587140178E-1   -4.437386459452749E-1    7.054983827363125E-1    4.709445282088522E-1    2.724862219383311E-1
 9.166000000000000E9     4.543524965076047E-1    3.075430270614980E-1   -4.293820466179761E-1    7.166398066504162E-1   -4.327050155276665E-1    7.150841914751548E-1    4.734251661500976E-1    2.644771126257419E-1
 9.187000000000000E9     4.582654779988640E-1    2.995199656420949E-1   -4.174941974468282E-1    7.260201786262650E-1   -4.185929192634162E-1    7.247670962214157E-1    4.764251363717273E-1    2.565616105810075E-1
 9.208000000000000E9     4.610919634163517E-1    2.924704103640125E-1   -4.046553965632486E-1    7.336557270231435E-1   -4.051544682670943E-1    7.295166412061935E-1    4.793066484548777E-1    2.476190368240732E-1
 9.229000000000000E9     4.643198984171488E-1    2.848848690729552E-1   -3.922518191863140E-1    7.394496948502446E-1   -3.958239553216924E-1    7.344053584135665E-1    4.815103731023371E-1    2.390314460354119E-1
 9.250000000000000E9     4.682134105106110E-1    2.770648192165031E-1   -3.824005949061502E-1    7.445266491360951E-1   -3.866303522126189E-1    7.435774013140940E-1    4.840069658615429E-1    2.312363068983222E-1
 9.271000000000000E9     4.709309858096683E-1    2.690527332335482E-1   -3.718287935027909E-1    7.520638212412740E-1   -3.747579210594097E-1    7.528615438183639E-1    4.858028764380840E-1    2.236618870221428E-1
 9.292000000000000E9     4.734069694965623E-1    2.605181603254186E-1   -3.595186891155517E-1    7.604143090289031E-1   -3.596893271343962E-1    7.591582151390336E-1    4.884712578804652E-1    2.144826299092415E-1
 9.313000000000000E9     4.758323942219637E-1    2.524513673281545E-1   -3.457022006721162E-1    7.680691715706420E-1   -3.471711624215459E-1    7.625702657029161E-1    4.910186620266860E-1    2.056198087914945E-1
 9.334000000000000E9     4.784581207115777E-1    2.449694045419223E-1   -3.327500598130519E-1    7.723835452554254E-1   -3.370371826968391E-1    7.684683158970139E-1    4.922658677035252E-1    1.976270756783751E-1
 9.355000000000000E9     4.815720795368455E-1    2.368226616041515E-1   -3.218529217281542E-1    7.768584617882680E-1   -3.268760993748022E-1    7.758393260575859E-1    4.940977991589662E-1    1.892632795627381E-1
 9.376000000000000E9     4.830695063063316E-1    2.278043513291355E-1   -3.105527051248083E-1    7.833407472428789E-1   -3.128062941068615E-1    7.840603136104208E-1    4.957427554192408E-1    1.815955214600565E-1
 9.397000000000000E9     4.856806610617690E-1    2.202543235192963E-1   -2.975946135803986E-1    7.902145051522927E-1   -2.993484512407082E-1    7.878263159846285E-1    4.972831494469200E-1    1.736234850588972E-1
 9.418000000000000E9     4.863747653428592E-1    2.117585462479631E-1   -2.837299472766565E-1    7.956781121502361E-1   -2.865988761325570E-1    7.912843591499455E-1    4.994920406470237E-1    1.650275927268040E-1
 9.439000000000000E9     4.879611563924026E-1    2.042259071757472E-1   -2.709195316688187E-1    7.989431434843791E-1   -2.765612523604897E-1    7.963303249590253E-1    5.001700663785205E-1    1.575207177235200E-1
 9.460000000000000E9     4.905571787656682E-1    1.960667482270513E-1   -2.595746204518540E-1    8.038519481588517E-1   -2.638886663497878E-1    8.034991810921474E-1    5.009494529997336E-1    1.494595286277100E-1
 9.481000000000000E9     4.911709906878630E-1    1.870283318092885E-1   -2.465899060715787E-1    8.095509738134542E-1   -2.496856838711735E-1    8.094043898809284E-1    5.018980253374802E-1    1.422772529452141E-1
 9.502000000000000E9     4.915911171365630E-1    1.792035204901102E-1   -2.333874331919074E-1    8.138318925225128E-1   -2.351510017625623E-1    8.125449561166855E-1    5.034198281570073E-1    1.344982298393789E-1
 9.523000000000000E9     4.924109557583484E-1    1.708574379489663E-1   -2.197546480754207E-1    8.184905748914456E-1   -2.233517147916567E-1    8.152244908764547E-1    5.036490502147027E-1    1.258492309605036E-1
 9.544000000000000E9     4.939883107519398E-1    1.625345699375996E-1   -2.078459148235239E-1    8.206420225023141E-1   -2.126476271878796E-1    8.201161422353762E-1    5.045868025019322E-1    1.183620981774812E-1
 9.565000000000000E9     4.949992183832266E-1    1.545102067278143E-1   -1.951399712492534E-1    8.243510435424317E-1   -1.984138428345861E-1    8.252940209181908E-1    5.055585253192014E-1    1.097557433219025E-1
 9.586000000000000E9     4.953911370251171E-1    1.459297462314381E-1   -1.823533338914985E-1    8.285105609181406E-1   -1.823949406362153E-1    8.290651591477740E-1    5.063230386564348E-1    1.026155607291169E-1
 9.607000000000000E9     4.951194630667273E-1    1.376153413311733E-1   -1.689486468406706E-1    8.326984633360909E-1   -1.694531391410246E-1    8.306473570630577E-1    5.063995583710255E-1    9.555593429948653E-2
 9.628000000000000E9     4.946554822906410E-1    1.284980568338924E-1   -1.556850288136927E-1    8.344616580451065E-1   -1.581725739183266E-1    8.324761717397038E-1    5.067182973894034E-1    8.694545106194096E-2
 9.649000000000000E9     4.963274775682014E-1    1.206796244767600E-1   -1.427453993900994E-1    8.369692549130913E-1   -1.453101870220769E-1    8.377071224774978E-1    5.067172012434401E-1    7.978492184486383E-2
 9.670000000000000E9     4.960053964071602E-1    1.128942375727200E-1   -1.303195969812022E-1    8.392758773395469E-1   -1.314928317826153E-1    8.409880877204579E-1    5.080475292817140E-1    7.132954460253545E-2
 9.691000000000000E9     4.950165637229969E-1    1.045192167176802E-1   -1.170795176872773E-1    8.419212217168537E-1   -1.163733521231831E-1    8.419161345903045E-1    5.077705983198337E-1    6.397390942368306E-2
 9.712000000000000E9     4.943885918438287E-1    9.613444010189438E-2   -1.021535401067654E-1    8.449158761520443E-1   -1.037420839644799E-1    8.422908409687834E-1    5.081885053414454E-1    5.532726119953695E-2
 9.733000000000000E9     4.945469911428800E-1    8.809446506587634E-2   -8.959477083103241E-2    8.458153052610904E-1   -9.316956812146501E-2    8.449761329124853E-1    5.074938080190430E-1    4.901132952454599E-2
 9.754000000000000E9     4.942351027701958E-1    7.961334933340554E-2   -7.574221002047653E-2    8.475416533979484E-1   -7.931120470321502E-2    8.480627777671835E-1    5.073968250025205E-1    4.107724573350981E-2
 9.775000000000000E9     4.945928439012581E-1    7.220438230256931E-2   -6.242646401194543E-2    8.486762292762559E-1   -6.369169878289893E-2    8.499546427759784E-1    5.077250619519015E-1    3.221763783023779E-2
 9.796000000000000E9     4.929159627848316E-1    6.453829584502629E-2   -4.866674849555025E-2    8.503642132779707E-1   -5.019763215791513E-2    8.489214931011788E-1    5.072212833843285E-1    2.472239720866239E-2
 9.817000000000000E9     4.912910324892110E-1    5.592292136035133E-2   -3.572001062286359E-2    8.505690073253357E-1   -3.904928163589336E-2    8.486145777132187E-1    5.073070642565322E-1    1.764279192821713E-2
 9.838000000000000E9     4.908765283922595E-1    4.825431771186346E-2   -2.402752176938463E-2    8.511449946001678E-1   -2.704338174923838E-2    8.511423518379237E-1    5.069011630230655E-1    1.045932628479404E-2
 9.859000000000000E9     4.902475521886455E-1    3.931272032187541E-2   -1.016201374430290E-2    8.512851029705210E-1   -1.210527440727591E-2    8.532675037024756E-1    5.057086497462371E-1    1.926911942177978E-3
 9.880000000000000E9     4.899222616993687E-1    3.223997460494168E-2    2.481334319912567E-3    8.524519129051086E-1    4.140242683556845E-3    8.523101686311825E-1    5.048446371432750E-1   -6.223132996589831E-3
 9.901000000000000E9     4.887376304244271E-1    2.536239640926309E-2    1.598045898530814E-2    8.527665009702363E-1    1.617636400589968E-2    8.503593964422168E-1    5.049124056935173E-1   -1.312067386783913E-2
 9.922000000000000E9     4.863780431596538E-1    1.762977820976546E-2    2.902461020821498E-2    8.518575962499204E-1    2.715427900902474E-2    8.493904846397767E-1    5.040943000905430E-1   -2.093861103319228E-2
 9.943000000000000E9     4.863093208963051E-1    9.353082710280246E-3    4.058949210180168E-2    8.509542382669107E-1    3.935874969248916E-2    8.517487308539213E-1    5.022014888804208E-1   -2.830983802952658E-2
 9.964000000000000E9     4.850379220458636E-1    5.770678914179816E-4    5.322183997350972E-2    8.510141337682540E-1    5.500376630060091E-2    8.531688437677365E-1    5.013388514755924E-1   -3.688770746815995E-2
 9.985000000000000E9     4.842517308071496E-1   -6.050009428903089E-3    6.792839761388243E-2    8.516272855043792E-1    6.977265786452601E-2    8.505004583169777E-1    5.007482961345464E-1   -4.385504760993710E-2
 1.000600000000000E+10   4.829652265555666E-1   -1.360099682979479E-2    8.527994774665987E-2    8.488629515810004E-1    8.023727122340725E-2    8.479170007859933E-1    5.005872432091808E-1   -5.271864724836627E-2
 1.002700000000000E+10   4.817055054193373E-1   -2.149411324312017E-2    9.800416713586003E-2    8.469918766562563E-1    9.034945642627142E-2    8.478583911762577E-1    4.991888885379298E-1   -5.978686461875272E-2
 1.004800000000000E+10   4.802236684710342E-1   -2.979809116122365E-2    1.101611918383079E-1    8.460876729031976E-1    1.044364865189716E-1    8.501063852707259E-1    4.970400413453712E-1   -6.716613204880188E-2
 1.006900000000000E+10   4.788581105497885E-1   -3.683338061869795E-2    1.232252752616453E-1    8.448681884250854E-1    1.198461006757430E-1    8.490609724795147E-1    4.948549411361259E-1   -7.535021149149179E-2
 1.009000000000000E+10   4.771831975015376E-1   -4.409538965131739E-2    1.361145505679189E-1    8.443707196798610E-1    1.345654270928286E-1    8.440126239716912E-1    4.927323087753089E-1   -8.439294568139652E-2
