! MS46122A
! 1535301/65260029
! 9/21/2023 11:17:27 AM
! D:\PC DATA\DESKTOP\PROPOSAL\IIIT GUWAHATI\PORT 4.S2P
! CHANNEL.1
! TR.MEASUREMENT
! CORRECTED.DATA
# GHZ S RI R 50.0
! FREQ.GHZ         S11RE         S11IM         S21RE         S21IM         S12RE         S12IM         S22RE         S22IM         
!; PortSelection: Port_12
	0.001000000     0.8509032   -0.1381154    -0.0000293    0.0000712     0.0003638   -0.0000720     1.0039720   -0.0035172 
   0.020999000     1.1896780   -0.4857160    -0.0000034    0.0000052     0.0000000    0.0000000     0.9973559   -0.0317895 
   0.040998000     1.0202500   -0.7906418     0.0000065   -0.0000045    -0.0000051    0.0000017     0.9951324   -0.0637737 
   0.060997000     0.7718673   -1.0404050     0.0000019   -0.0000026     0.0000037   -0.0000002     0.9921227   -0.0954594 
   0.080996000     0.4602979   -1.2165020     0.0000005   -0.0000042     0.0000023    0.0000000     0.9883386   -0.1272623 
   0.100995000     0.1059061   -1.3009900    -0.0000034   -0.0000054    -0.0000015   -0.0000015     0.9836682   -0.1579273 
   0.120994000    -0.2641915   -1.2798150    -0.0000034    0.0000046     0.0000035   -0.0000030     0.9784164   -0.1882548 
   0.140993000    -0.6190472   -1.1507280     0.0000049   -0.0000029    -0.0000029    0.0000031     0.9718014   -0.2182890 
   0.160992000    -0.9230676   -0.9184588     0.0000078    0.0000010     0.0000027    0.0000003     0.9635282   -0.2491083 
   0.180991000    -1.1442100   -0.6021044    -0.0000038    0.0000045    -0.0000012   -0.0000068     0.9543405   -0.2803969 
   0.200990000    -1.2578900   -0.2330986     0.0000037   -0.0000031     0.0000072    0.0000009     0.9442285   -0.3113083 
   0.220989000    -1.2527790    0.1500660     0.0000025   -0.0000062    -0.0000032   -0.0000026     0.9330129   -0.3417515 
   0.240988000    -1.1319310    0.5079424     0.0000008    0.0000028    -0.0000036    0.0000003     0.9221104   -0.3713669 
   0.260987000    -0.9135853    0.8063537    -0.0000012   -0.0000009     0.0000001   -0.0000009     0.9099836   -0.3995062 
   0.280986000    -0.6233051    1.0209690    -0.0000055    0.0000063     0.0000019   -0.0000038     0.8967393   -0.4277939 
   0.300985000    -0.2924294    1.1384970    -0.0000033   -0.0000006    -0.0000004    0.0000018     0.8813460   -0.4571867 
   0.320984000     0.0491379    1.1567390     0.0000037   -0.0000031    -0.0000006    0.0000000     0.8654464   -0.4860821 
   0.340983000     0.3739364    1.0810160    -0.0000029   -0.0000030    -0.0000046    0.0000025     0.8477863   -0.5145900 
   0.360982000     0.6600639    0.9235276    -0.0000111   -0.0000050    -0.0000039    0.0000001     0.8296934   -0.5427627 
   0.380981000     0.8904031    0.6985533     0.0000010    0.0000002     0.0000010    0.0000008     0.8117746   -0.5699282 
   0.400980000     1.0516330    0.4230174    -0.0000024    0.0000018    -0.0000029    0.0000011     0.7921972   -0.5958144 
   0.420979000     1.1348920    0.1177200    -0.0000007    0.0000001     0.0000023   -0.0000029     0.7708129   -0.6223685 
   0.440978000     1.1348980   -0.2029974     0.0000028    0.0000004     0.0000019    0.0000008     0.7488985   -0.6485814 
   0.460977000     1.0501800   -0.5136794     0.0000019   -0.0000034    -0.0000012    0.0000037     0.7253698   -0.6734375 
   0.480976000     0.8825094   -0.7956283    -0.0000026   -0.0000013    -0.0000002   -0.0000003     0.7004837   -0.6987175 
   0.500975000     0.6417977   -1.0243510     0.0000051    0.0000007     0.0000033    0.0000029     0.6756300   -0.7231410 
   0.520974000     0.3413306   -1.1809300    -0.0000014    0.0000080    -0.0000095   -0.0000029     0.6494927   -0.7460095 
   0.540973000    -0.0006128   -1.2479900     0.0000003    0.0000036    -0.0000013    0.0000042     0.6211601   -0.7684851 
   0.560972000    -0.3534397   -1.2122410     0.0000008    0.0000032    -0.0000007    0.0000003     0.5926139   -0.7905876 
   0.580971000    -0.6846513   -1.0716230     0.0000049   -0.0000063    -0.0000119   -0.0000034     0.5628281   -0.8111006 
   0.600970000    -0.9602631   -0.8374551    -0.0000076    0.0000025    -0.0000008   -0.0000004     0.5311376   -0.8318329 
   0.620969000    -1.1531100   -0.5304978     0.0000044    0.0000048     0.0000027    0.0000001     0.4998354   -0.8523334 
   0.640968000    -1.2431500   -0.1853593     0.0000043   -0.0000088    -0.0000001    0.0000014     0.4674259   -0.8698357 
   0.660967000    -1.2272160    0.1612823     0.0000012    0.0000008    -0.0000030    0.0000015     0.4318783   -0.8862811 
   0.680966000    -1.1162850    0.4768918     0.0000009   -0.0000019    -0.0000052   -0.0000048     0.3957285   -0.9021842 
   0.700965000    -0.9249099    0.7420269     0.0000024   -0.0000016     0.0000070   -0.0000038     0.3583831   -0.9163606 
   0.720964000    -0.6730448    0.9395075    -0.0000131   -0.0000032     0.0000006   -0.0000013     0.3194969   -0.9296144 
   0.740963000    -0.3894444    1.0555990     0.0000012   -0.0000027    -0.0000034    0.0000021     0.2802700   -0.9431261 
   0.760962000    -0.0967296    1.0922730    -0.0000017   -0.0000022    -0.0000091    0.0000071     0.2404566   -0.9544914 
   0.780961000     0.1877002    1.0526370     0.0000051    0.0000022     0.0000038   -0.0000004     0.1990691   -0.9630990 
   0.800960000     0.4473174    0.9444973     0.0000034   -0.0000023     0.0000005   -0.0000101     0.1558492   -0.9693984 
   0.820959000     0.6709096    0.7753374    -0.0000025   -0.0000054    -0.0000059   -0.0000019     0.1122265   -0.9731461 
   0.840958000     0.8435270    0.5554705    -0.0000028    0.0000090    -0.0000062    0.0000026     0.0662657   -0.9747340 
   0.860957000     0.9538735    0.3002929    -0.0000003    0.0000029     0.0000095    0.0000081     0.0193585   -0.9761370 
   0.880956000     0.9952241    0.0242392     0.0000024    0.0000075     0.0000086    0.0000058    -0.0274234   -0.9759971 
   0.900955000     0.9629537   -0.2555391     0.0000172   -0.0000002     0.0000196   -0.0000078    -0.0746875   -0.9724810 
   0.920954000     0.8558742   -0.5223766    -0.0000052   -0.0000178    -0.0000173   -0.0000153    -0.1231781   -0.9653456 
   0.940953000     0.6761922   -0.7557801    -0.0000122    0.0000115    -0.0000164    0.0000099    -0.1712213   -0.9555764 
   0.960952000     0.4307406   -0.9335877     0.0000024    0.0000069     0.0000076    0.0000183    -0.2200521   -0.9409822 
   0.980951000     0.1312860   -1.0376170     0.0000130    0.0000092     0.0000185    0.0000108    -0.2704785   -0.9239803 
   1.000950000    -0.1954998   -1.0465280     0.0000130   -0.0000154     0.0000242   -0.0000108    -0.3194044   -0.9045901 
   1.020949000    -0.5167401   -0.9512575    -0.0000052   -0.0000189    -0.0000029   -0.0000245    -0.3665888   -0.8830759 
   1.040948000    -0.7956857   -0.7569067    -0.0000244    0.0000005    -0.0000225   -0.0000017    -0.4147235   -0.8596182 
   1.060947000    -0.9973379   -0.4838831    -0.0000197    0.0000096    -0.0000133    0.0000121    -0.4634863   -0.8327098 
   1.080946000    -1.1024460   -0.1662293     0.0000034    0.0000169     0.0000162    0.0000234    -0.5104055   -0.8002672 
   1.100945000    -1.1027730    0.1636798     0.0000248   -0.0000083     0.0000216   -0.0000131    -0.5580368   -0.7617570 
   1.120944000    -1.0067450    0.4696351     0.0000127   -0.0000121     0.0000037   -0.0000211    -0.6030235   -0.7200229 
   1.140943000    -0.8305654    0.7250623    -0.0000108   -0.0000101    -0.0000202   -0.0000079    -0.6431471   -0.6746646 
   1.160942000    -0.5975858    0.9130844    -0.0000118    0.0000046    -0.0000138    0.0000126    -0.6790308   -0.6288551 
   1.180941000    -0.3308254    1.0267720    -0.0000018    0.0000079     0.0000160    0.0000084    -0.7155334   -0.5822580 
   1.200940000    -0.0537128    1.0650350     0.0000059   -0.0000046     0.0000133    0.0000021    -0.7524359   -0.5305827 
   1.220939000     0.2127575    1.0313810    -0.0000003   -0.0000037    -0.0000006    0.0000003    -0.7876740   -0.4705839 
   1.240938000     0.4530549    0.9368318    -0.0000015    0.0000039     0.0000027   -0.0000093    -0.8197156   -0.4043985 
   1.260937000     0.6594170    0.7906113     0.0000000    0.0000027    -0.0000044    0.0000025    -0.8442258   -0.3316340 
   1.280936000     0.8254799    0.5990745     0.0000115    0.0000050     0.0000098    0.0000059    -0.8576578   -0.2522823 
   1.300935000     0.9410422    0.3696947     0.0000051   -0.0000218     0.0000048   -0.0000110    -0.8560718   -0.1742201 
   1.320934000     0.9979351    0.1167846    -0.0000132   -0.0000094    -0.0000145   -0.0000041    -0.8423790   -0.1050539 
   1.340933000     0.9893923   -0.1460684    -0.0000180   -0.0000036    -0.0000179    0.0000091    -0.8272004   -0.0444146 
   1.360932000     0.9122149   -0.4032124    -0.0000038    0.0000241     0.0000089    0.0000199    -0.8151263    0.0143842 
   1.380931000     0.7643585   -0.6364214     0.0000218    0.0000170     0.0000249    0.0000060    -0.8011703    0.0751499 
   1.400930000     0.5519778   -0.8243149     0.0000344   -0.0000211     0.0000157   -0.0000232    -0.7821330    0.1360123 
   1.420929000     0.2869069   -0.9474989    -0.0000159   -0.0000349    -0.0000162   -0.0000192    -0.7570443    0.1933855 
   1.440928000    -0.0099091   -0.9880818    -0.0000411   -0.0000035    -0.0000326    0.0000098    -0.7290406    0.2471194 
   1.460927000    -0.3122835   -0.9348729    -0.0000222    0.0000401    -0.0000169    0.0000339    -0.6976051    0.2982931 
   1.480926000    -0.5873573   -0.7871832     0.0000372    0.0000419     0.0000390    0.0000290    -0.6667580    0.3480315 
   1.500925000    -0.8043325   -0.5564003     0.0000389   -0.0000085     0.0000411   -0.0000245    -0.6313927    0.3998262 
   1.520924000    -0.9371759   -0.2659698     0.0000162   -0.0000528    -0.0000115   -0.0000397    -0.5899219    0.4505912 
   1.540923000    -0.9694675    0.0496543    -0.0000442   -0.0000260    -0.0000461   -0.0000115    -0.5420744    0.4949957 
   1.560922000    -0.9013488    0.3538054    -0.0000479    0.0000321    -0.0000325    0.0000427    -0.4922207    0.5315499 
   1.580921000    -0.7456885    0.6161106     0.0000314    0.0000338     0.0000301    0.0000294    -0.4417725    0.5654093 
   1.600920000    -0.5231169    0.8141574     0.0000424   -0.0000031     0.0000304   -0.0000096    -0.3890117    0.5930883 
   1.620919000    -0.2586486    0.9359884     0.0000200   -0.0000324     0.0000059   -0.0000335    -0.3363326    0.6211317 
   1.640918000     0.0231496    0.9766991    -0.0000196   -0.0000304    -0.0000265   -0.0000150    -0.2800010    0.6471217 
   1.660917000     0.3000677    0.9380699    -0.0000283    0.0000115    -0.0000220    0.0000102    -0.2226093    0.6679792 
   1.680916000     0.5525016    0.8280300    -0.0000011    0.0000295     0.0000086    0.0000173    -0.1612729    0.6833327 
   1.700915000     0.7647057    0.6560722     0.0000112    0.0000122     0.0000217    0.0000087    -0.0986468    0.6940331 
   1.720914000     0.9234372    0.4353864     0.0000205    0.0000038     0.0000203   -0.0000214    -0.0334709    0.6954300 
   1.740913000     1.0192790    0.1807369     0.0000092   -0.0000132    -0.0000085   -0.0000238     0.0318029    0.6915824 
   1.760912000     1.0452670   -0.0928358    -0.0000109   -0.0000186    -0.0000192   -0.0000028     0.0965933    0.6790403 
   1.780911000     0.9963343   -0.3692313    -0.0000098    0.0000073    -0.0000066    0.0000066     0.1587286    0.6606687 
   1.800910000     0.8705609   -0.6281523    -0.0000111    0.0000026     0.0000005   -0.0000050     0.2172300    0.6313886 
   1.820909000     0.6729887   -0.8467011     0.0000331    0.0000253    -0.0000037    0.0000064     0.2674251    0.5969110 
   1.840908000     0.4168769   -1.0019870     0.0000051    0.0000024    -0.0000016   -0.0000039     0.3100828    0.5552535 
   1.860907000     0.1235674   -1.0767890    -0.0000114   -0.0000042    -0.0000053   -0.0000007     0.3388629    0.5066870 
   1.880906000    -0.1806097   -1.0616380    -0.0000057    0.0000027     0.0000007    0.0000094     0.3543765    0.4674086 
   1.900905000    -0.4670184   -0.9562685     0.0000018   -0.0000142    -0.0000042   -0.0000075     0.3656255    0.4328284 
   1.920904000    -0.7078232   -0.7704113    -0.0000056   -0.0000070    -0.0000153   -0.0000062     0.3695657    0.4058287 
   1.940903000    -0.8801849   -0.5231102    -0.0000176   -0.0000003    -0.0000191    0.0000083     0.3753183    0.3879780 
   1.960902000    -0.9699172   -0.2398492    -0.0000044    0.0000215     0.0000113    0.0000251     0.3834336    0.3771211 
   1.980901000    -0.9724755    0.0507135     0.0000198    0.0000074     0.0000193    0.0000058     0.3950777    0.3676525 
   2.000900000    -0.8926162    0.3231440     0.0000087   -0.0000168     0.0000016   -0.0000125     0.4122206    0.3607552 
   2.020899000    -0.7425621    0.5559115    -0.0000105   -0.0000218    -0.0000059   -0.0000144     0.4343433    0.3504929 
   2.040898000    -0.5382242    0.7342254    -0.0000189    0.0000050    -0.0000180    0.0000035     0.4553185    0.3361036 
   2.060897000    -0.2978253    0.8480215    -0.0000107    0.0000157    -0.0000046    0.0000142     0.4781566    0.3204396 
   2.080896000    -0.0389806    0.8929201     0.0000114    0.0000137     0.0000101    0.0000105     0.4956124    0.3020927 
   2.100895000     0.2216334    0.8679817     0.0000181   -0.0000102     0.0000115   -0.0000059     0.5100436    0.2909259 
   2.120894000     0.4679015    0.7745060     0.0000049   -0.0000204     0.0000052   -0.0000100     0.5334975    0.2869894 
   2.140893000     0.6835610    0.6167352    -0.0000150   -0.0000108    -0.0000165   -0.0000147     0.5762246    0.2872764 
   2.160892000     0.8516154    0.4032207    -0.0000200    0.0000062    -0.0000149    0.0000042     0.6443301    0.2588201 
   2.180891000     0.9577264    0.1467363    -0.0000010    0.0000227     0.0000013    0.0000095     0.6928172    0.1863921 
   2.200890000     0.9879525   -0.1415226     0.0000197    0.0000040    -0.0000026    0.0000088     0.6995807    0.1112541 
   2.220889000     0.9354823   -0.4287099     0.0000190   -0.0000124     0.0000078    0.0000106     0.6887622    0.0541948 
   2.240888000     0.7985770   -0.6949401     0.0000013   -0.0000295     0.0000076   -0.0000114     0.6758676    0.0070816 
   2.260887000     0.5839517   -0.9138006    -0.0000238   -0.0000153    -0.0000172   -0.0000040     0.6608140   -0.0330396 
   2.280886000     0.3081223   -1.0604200    -0.0000242    0.0000229    -0.0000079    0.0000169     0.6435691   -0.0688775 
   2.300885000    -0.0025424   -1.1166190     0.0000066    0.0000352    -0.0000016    0.0000171     0.6228044   -0.0990949 
   2.320884000    -0.3151774   -1.0736650     0.0000395    0.0000477     0.0000170    0.0000044     0.6021652   -0.1222740 
   2.340883000    -0.5957434   -0.9389185     0.0000294   -0.0000065     0.0000140   -0.0000036     0.5810313   -0.1396215 
   2.360882000    -0.8172733   -0.7308424     0.0000036   -0.0000347     0.0000010    0.0000037     0.5630566   -0.1547636 
   2.380881000    -0.9628384   -0.4748427    -0.0000114   -0.0000298     0.0000040   -0.0000011     0.5436426   -0.1704513 
   2.400880000    -1.0271500   -0.1983519    -0.0000435   -0.0000072    -0.0000177    0.0000032     0.5228324   -0.1809237 
   2.420879000    -1.0124190    0.0734962    -0.0000204    0.0000457     0.0000028    0.0000256     0.5026131   -0.1887854 
   2.440878000    -0.9288480    0.3198681     0.0000304    0.0000145     0.0000339    0.0000043     0.4781972   -0.1897028 
   2.460877000    -0.7906742    0.5265445     0.0000045   -0.0000124     0.0000099   -0.0000232     0.4550425   -0.1816236 
   2.480876000    -0.6131015    0.6849949    -0.0000052   -0.0000033    -0.0000073   -0.0000161     0.4335747   -0.1601584 
   2.500875000    -0.4091080    0.7918133     0.0000097    0.0000076    -0.0000072    0.0000062     0.4213844   -0.1261894 
   2.520874000    -0.1911218    0.8461395     0.0000058   -0.0000184     0.0000059    0.0000019     0.4273372   -0.0761803 
   2.540873000     0.0302082    0.8477116    -0.0000209   -0.0000135    -0.0000032    0.0000021     0.4703195   -0.0182508 
   2.560872000     0.2458056    0.7973831    -0.0000276    0.0000005     0.0000039    0.0000066     0.5623817    0.0170459 
   2.580871000     0.4452449    0.6969009    -0.0000326    0.0000244    -0.0000065   -0.0000038     0.6812603   -0.0104128 
   2.600870000     0.6178831    0.5480940    -0.0000090    0.0000328     0.0000012    0.0000051     0.7669113   -0.1007797 
   2.620869000     0.7524530    0.3554601     0.0000112    0.0000232    -0.0000073    0.0000073     0.7952794   -0.2092371 
   2.640868000     0.8357790    0.1267050     0.0000183   -0.0000002     0.0000055    0.0000033     0.7845678   -0.3018419 
   2.660867000     0.8559737   -0.1266211     0.0000046   -0.0000114    -0.0000047    0.0000010     0.7555574   -0.3722341 
   2.680866000     0.8025923   -0.3865114    -0.0000121   -0.0000019     0.0000037    0.0000028     0.7217466   -0.4262119 
   2.700865000     0.6705177   -0.6304384    -0.0000095   -0.0000029     0.0000033   -0.0000065     0.6877795   -0.4698826 
   2.720864000     0.4620887   -0.8309627    -0.0000215    0.0000009     0.0000005   -0.0000047     0.6562691   -0.5031568 
   2.740863000     0.1921623   -0.9606208    -0.0000231    0.0000074    -0.0000166   -0.0000048     0.6265303   -0.5303582 
   2.760862000    -0.1131721   -0.9968275    -0.0000150    0.0000309    -0.0000149    0.0000033     0.5986071   -0.5558082 
   2.780861000    -0.4170497   -0.9302731     0.0000158    0.0000275    -0.0000117    0.0000194     0.5706562   -0.5775294 
   2.800860000    -0.6811355   -0.7694368     0.0000196   -0.0000014     0.0000077    0.0000163     0.5423597   -0.5955968 
   2.820859000    -0.8743415   -0.5382729     0.0000046   -0.0000312     0.0000080   -0.0000060     0.5150755   -0.6125867 
   2.840858000    -0.9817727   -0.2692097    -0.0000291   -0.0000232    -0.0000113   -0.0000051     0.4905032   -0.6268540 
   2.860857000    -1.0032800    0.0047040    -0.0000130   -0.0000025    -0.0000060    0.0000012     0.4657898   -0.6404414 
   2.880856000    -0.9495366    0.2581089    -0.0000071   -0.0000013     0.0000009    0.0000022     0.4423046   -0.6522299 
   2.900855000    -0.8382725    0.4743625    -0.0000015    0.0000000     0.0000022    0.0000045     0.4234954   -0.6645780 
   2.920854000    -0.6841556    0.6455567    -0.0000035    0.0000043     0.0000002   -0.0000036     0.4025232   -0.6773437 
   2.940853000    -0.5029411    0.7678474    -0.0000036    0.0000099    -0.0000038    0.0000066     0.3798824   -0.6884994 
   2.960852000    -0.3063689    0.8420543     0.0000030    0.0000075    -0.0000031    0.0000070     0.3584512   -0.6996970 
   2.980851000    -0.1043574    0.8698869     0.0000048    0.0000007    -0.0000083    0.0000045     0.3347033   -0.7080024 
   3.000850000     0.0951894    0.8530264     0.0000007    0.0000047    -0.0000089    0.0000123     0.3118033   -0.7163403 
   3.020849000     0.2857459    0.7935763     0.0000004    0.0000078    -0.0000047    0.0000108     0.2913449   -0.7272272 
   3.040848000     0.4588025    0.6929922    -0.0000009   -0.0000054    -0.0000012    0.0000039     0.2677716   -0.7353761 
   3.060847000     0.6062374    0.5540044     0.0000018   -0.0000061     0.0000011    0.0000093     0.2449431   -0.7400892 
   3.080846000     0.7192718    0.3811384    -0.0000018    0.0000098     0.0000012    0.0000037     0.2232127   -0.7470381 
   3.100845000     0.7896670    0.1810649    -0.0000058    0.0000090    -0.0000005    0.0000000     0.1997770   -0.7518516 
   3.120844000     0.8079614   -0.0373480     0.0000023    0.0000051    -0.0000054    0.0000044     0.1768477   -0.7539124 
