! MS46122A
! 1535301/65260029
! 9/21/2023 11:18:05 AM
! D:\PC DATA\DESKTOP\PROPOSAL\IIIT GUWAHATI\PORT 1.S2P
! CHANNEL.1
! TR.MEASUREMENT
! CORRECTED.DATA
# GHZ S RI R 50.0
! FREQ.GHZ         S11RE         S11IM         S21RE         S21IM         S12RE         S12IM         S22RE         S22IM         
!; PortSelection: Port_12
   0.001000000     0.8509032   -0.1381154    -0.0000293    0.0000712     0.0003638   -0.0000720     1.0030370   -0.0037461 
   0.020999000     1.1896780   -0.4857160    -0.0000034    0.0000052     0.0000000    0.0000000     0.9972038   -0.0353886 
   0.040998000     1.0202500   -0.7906418     0.0000065   -0.0000045    -0.0000051    0.0000017     0.9944696   -0.0707997 
   0.060997000     0.7718673   -1.0404050     0.0000019   -0.0000026     0.0000037   -0.0000002     0.9907835   -0.1059284 
   0.080996000     0.4602979   -1.2165020     0.0000005   -0.0000042     0.0000023    0.0000000     0.9863374   -0.1408280 
   0.100995000     0.1059061   -1.3009900    -0.0000034   -0.0000054    -0.0000015   -0.0000015     0.9803699   -0.1748830 
   0.120994000    -0.2641915   -1.2798150    -0.0000034    0.0000046     0.0000035   -0.0000030     0.9738879   -0.2082935 
   0.140993000    -0.6190472   -1.1507280     0.0000049   -0.0000029    -0.0000029    0.0000031     0.9655322   -0.2414701 
   0.160992000    -0.9230676   -0.9184588     0.0000078    0.0000010     0.0000027    0.0000003     0.9556284   -0.2753067 
   0.180991000    -1.1442100   -0.6021044    -0.0000038    0.0000045    -0.0000012   -0.0000068     0.9445334   -0.3095307 
   0.200990000    -1.2578900   -0.2330986     0.0000037   -0.0000031     0.0000072    0.0000009     0.9322577   -0.3432575 
   0.220989000    -1.2527790    0.1500660     0.0000025   -0.0000062    -0.0000032   -0.0000026     0.9185637   -0.3764062 
   0.240988000    -1.1319310    0.5079424     0.0000008    0.0000028    -0.0000036    0.0000003     0.9050981   -0.4086123 
   0.260987000    -0.9135853    0.8063537    -0.0000012   -0.0000009     0.0000001   -0.0000009     0.8904918   -0.4392635 
   0.280986000    -0.6233051    1.0209690    -0.0000055    0.0000063     0.0000019   -0.0000038     0.8740216   -0.4700976 
   0.300985000    -0.2924294    1.1384970    -0.0000033   -0.0000006    -0.0000004    0.0000018     0.8554271   -0.5020003 
   0.320984000     0.0491379    1.1567390     0.0000037   -0.0000031    -0.0000006    0.0000000     0.8359064   -0.5327844 
   0.340983000     0.3739364    1.0810160    -0.0000029   -0.0000030    -0.0000046    0.0000025     0.8144341   -0.5632036 
   0.360982000     0.6600639    0.9235276    -0.0000111   -0.0000050    -0.0000039    0.0000001     0.7925991   -0.5931084 
   0.380981000     0.8904031    0.6985533     0.0000010    0.0000002     0.0000010    0.0000008     0.7707355   -0.6217101 
   0.400980000     1.0516330    0.4230174    -0.0000024    0.0000018    -0.0000029    0.0000011     0.7469975   -0.6490840 
   0.420979000     1.1348920    0.1177200    -0.0000007    0.0000001     0.0000023   -0.0000029     0.7211649   -0.6766536 
   0.440978000     1.1348980   -0.2029974     0.0000028    0.0000004     0.0000019    0.0000008     0.6946078   -0.7035879 
   0.460977000     1.0501800   -0.5136794     0.0000019   -0.0000034    -0.0000012    0.0000037     0.6662558   -0.7292243 
   0.480976000     0.8825094   -0.7956283    -0.0000026   -0.0000013    -0.0000002   -0.0000003     0.6364896   -0.7549192 
   0.500975000     0.6417977   -1.0243510     0.0000051    0.0000007     0.0000033    0.0000029     0.6066083   -0.7795672 
   0.520974000     0.3413306   -1.1809300    -0.0000014    0.0000080    -0.0000095   -0.0000029     0.5749754   -0.8019716 
   0.540973000    -0.0006128   -1.2479900     0.0000003    0.0000036    -0.0000013    0.0000042     0.5411412   -0.8239781 
   0.560972000    -0.3534397   -1.2122410     0.0000008    0.0000032    -0.0000007    0.0000003     0.5070791   -0.8452264 
   0.580971000    -0.6846513   -1.0716230     0.0000049   -0.0000063    -0.0000119   -0.0000034     0.4716922   -0.8643495 
   0.600970000    -0.9602631   -0.8374551    -0.0000076    0.0000025    -0.0000008   -0.0000004     0.4337594   -0.8833979 
   0.620969000    -1.1531100   -0.5304978     0.0000044    0.0000048     0.0000027    0.0000001     0.3968791   -0.9020163 
   0.640968000    -1.2431500   -0.1853593     0.0000043   -0.0000088    -0.0000001    0.0000014     0.3584366   -0.9171330 
   0.660967000    -1.2272160    0.1612823     0.0000012    0.0000008    -0.0000030    0.0000015     0.3170618   -0.9304397 
   0.680966000    -1.1162850    0.4768918     0.0000009   -0.0000019    -0.0000052   -0.0000048     0.2746837   -0.9427598 
   0.700965000    -0.9249099    0.7420269     0.0000024   -0.0000016     0.0000070   -0.0000038     0.2314454   -0.9527469 
   0.720964000    -0.6730448    0.9395075    -0.0000131   -0.0000032     0.0000006   -0.0000013     0.1865302   -0.9617671 
   0.740963000    -0.3894444    1.0555990     0.0000012   -0.0000027    -0.0000034    0.0000021     0.1412601   -0.9702966 
   0.760962000    -0.0967296    1.0922730    -0.0000017   -0.0000022    -0.0000091    0.0000071     0.0958139   -0.9759741 
   0.780961000     0.1877002    1.0526370     0.0000051    0.0000022     0.0000038   -0.0000004     0.0486991   -0.9781871 
   0.800960000     0.4473174    0.9444973     0.0000034   -0.0000023     0.0000005   -0.0000101     0.0004543   -0.9775934 
   0.820959000     0.6709096    0.7753374    -0.0000025   -0.0000054    -0.0000059   -0.0000019    -0.0478940   -0.9736987 
   0.840958000     0.8435270    0.5554705    -0.0000028    0.0000090    -0.0000062    0.0000026    -0.0980447   -0.9673750 
   0.860957000     0.9538735    0.3002929    -0.0000003    0.0000029     0.0000095    0.0000081    -0.1492751   -0.9602926 
   0.880956000     0.9952241    0.0242392     0.0000024    0.0000075     0.0000086    0.0000058    -0.1998836   -0.9510354 
   0.900955000     0.9629537   -0.2555391     0.0000172   -0.0000002     0.0000196   -0.0000078    -0.2502041   -0.9375340 
   0.920954000     0.8558742   -0.5223766    -0.0000052   -0.0000178    -0.0000173   -0.0000153    -0.3008103   -0.9200068 
   0.940953000     0.6761922   -0.7557801    -0.0000122    0.0000115    -0.0000164    0.0000099    -0.3497778   -0.8993798 
   0.960952000     0.4307406   -0.9335877     0.0000024    0.0000069     0.0000076    0.0000183    -0.3985395   -0.8737498 
   0.980951000     0.1312860   -1.0376170     0.0000130    0.0000092     0.0000185    0.0000108    -0.4482155   -0.8459170 
   1.000950000    -0.1954998   -1.0465280     0.0000130   -0.0000154     0.0000242   -0.0000108    -0.4965405   -0.8163766 
   1.020949000    -0.5167401   -0.9512575    -0.0000052   -0.0000189    -0.0000029   -0.0000245    -0.5430632   -0.7833714 
   1.040948000    -0.7956857   -0.7569067    -0.0000244    0.0000005    -0.0000225   -0.0000017    -0.5892590   -0.7465733 
   1.060947000    -0.9973379   -0.4838831    -0.0000197    0.0000096    -0.0000133    0.0000121    -0.6332639   -0.7063341 
   1.080946000    -1.1024460   -0.1662293     0.0000034    0.0000169     0.0000162    0.0000234    -0.6735192   -0.6611122 
   1.100945000    -1.1027730    0.1636798     0.0000248   -0.0000083     0.0000216   -0.0000131    -0.7122992   -0.6110532 
   1.120944000    -1.0067450    0.4696351     0.0000127   -0.0000121     0.0000037   -0.0000211    -0.7473132   -0.5600314 
   1.140943000    -0.8305654    0.7250623    -0.0000108   -0.0000101    -0.0000202   -0.0000079    -0.7791313   -0.5072231 
   1.160942000    -0.5975858    0.9130844    -0.0000118    0.0000046    -0.0000138    0.0000126    -0.8082269   -0.4529700 
   1.180941000    -0.3308254    1.0267720    -0.0000018    0.0000079     0.0000160    0.0000084    -0.8356483   -0.3954115 
   1.200940000    -0.0537128    1.0650350     0.0000059   -0.0000046     0.0000133    0.0000021    -0.8589044   -0.3334040 
   1.220939000     0.2127575    1.0313810    -0.0000003   -0.0000037    -0.0000006    0.0000003    -0.8785300   -0.2662749 
   1.240938000     0.4530549    0.9368318    -0.0000015    0.0000039     0.0000027   -0.0000093    -0.8937683   -0.1959688 
   1.260937000     0.6594170    0.7906113     0.0000000    0.0000027    -0.0000044    0.0000025    -0.9023182   -0.1212802 
   1.280936000     0.8254799    0.5990745     0.0000115    0.0000050     0.0000098    0.0000059    -0.8992776   -0.0434962 
   1.300935000     0.9410422    0.3696947     0.0000051   -0.0000218     0.0000048   -0.0000110    -0.8833237    0.0298165 
   1.320934000     0.9979351    0.1167846    -0.0000132   -0.0000094    -0.0000145   -0.0000041    -0.8592564    0.0940191 
   1.340933000     0.9893923   -0.1460684    -0.0000180   -0.0000036    -0.0000179    0.0000091    -0.8354031    0.1504616 
   1.360932000     0.9122149   -0.4032124    -0.0000038    0.0000241     0.0000089    0.0000199    -0.8127557    0.2055068 
   1.380931000     0.7643585   -0.6364214     0.0000218    0.0000170     0.0000249    0.0000060    -0.7890127    0.2605771 
   1.400930000     0.5519778   -0.8243149     0.0000344   -0.0000211     0.0000157   -0.0000232    -0.7622265    0.3150062 
   1.420929000     0.2869069   -0.9474989    -0.0000159   -0.0000349    -0.0000162   -0.0000192    -0.7303962    0.3669026 
   1.440928000    -0.0099091   -0.9880818    -0.0000411   -0.0000035    -0.0000326    0.0000098    -0.6945745    0.4153482 
   1.460927000    -0.3122835   -0.9348729    -0.0000222    0.0000401    -0.0000169    0.0000339    -0.6569665    0.4602579 
   1.480926000    -0.5873573   -0.7871832     0.0000372    0.0000419     0.0000390    0.0000290    -0.6183777    0.5026799 
   1.500925000    -0.8043325   -0.5564003     0.0000389   -0.0000085     0.0000411   -0.0000245    -0.5783232    0.5448635 
   1.520924000    -0.9371759   -0.2659698     0.0000162   -0.0000528    -0.0000115   -0.0000397    -0.5352829    0.5857056 
   1.540923000    -0.9694675    0.0496543    -0.0000442   -0.0000260    -0.0000461   -0.0000115    -0.4882927    0.6221246 
   1.560922000    -0.9013488    0.3538054    -0.0000479    0.0000321    -0.0000325    0.0000427    -0.4396521    0.6544738 
   1.580921000    -0.7456885    0.6161106     0.0000314    0.0000338     0.0000301    0.0000294    -0.3886075    0.6848880 
   1.600920000    -0.5231169    0.8141574     0.0000424   -0.0000031     0.0000304   -0.0000096    -0.3341868    0.7096077 
   1.620919000    -0.2586486    0.9359884     0.0000200   -0.0000324     0.0000059   -0.0000335    -0.2781647    0.7330016 
   1.640918000     0.0231496    0.9766991    -0.0000196   -0.0000304    -0.0000265   -0.0000150    -0.2198821    0.7532705 
   1.660917000     0.3000677    0.9380699    -0.0000283    0.0000115    -0.0000220    0.0000102    -0.1613378    0.7675570 
   1.680916000     0.5525016    0.8280300    -0.0000011    0.0000295     0.0000086    0.0000173    -0.1013617    0.7762101 
   1.700915000     0.7647057    0.6560722     0.0000112    0.0000122     0.0000217    0.0000087    -0.0405710    0.7806466 
   1.720914000     0.9234372    0.4353864     0.0000205    0.0000038     0.0000203   -0.0000214     0.0208570    0.7771027 
   1.740913000     1.0192790    0.1807369     0.0000092   -0.0000132    -0.0000085   -0.0000238     0.0825670    0.7695401 
   1.760912000     1.0452670   -0.0928358    -0.0000109   -0.0000186    -0.0000192   -0.0000028     0.1443001    0.7553975 
   1.780911000     0.9963343   -0.3692313    -0.0000098    0.0000073    -0.0000066    0.0000066     0.2036142    0.7336366 
   1.800910000     0.8705609   -0.6281523    -0.0000111    0.0000026     0.0000005   -0.0000050     0.2579550    0.7019517 
   1.820909000     0.6729887   -0.8467011     0.0000331    0.0000253    -0.0000037    0.0000064     0.3027591    0.6648918 
   1.840908000     0.4168769   -1.0019870     0.0000051    0.0000024    -0.0000016   -0.0000039     0.3368064    0.6222232 
   1.860907000     0.1235674   -1.0767890    -0.0000114   -0.0000042    -0.0000053   -0.0000007     0.3560249    0.5793769 
   1.880906000    -0.1806097   -1.0616380    -0.0000057    0.0000027     0.0000007    0.0000094     0.3653853    0.5476133 
   1.900905000    -0.4670184   -0.9562685     0.0000018   -0.0000142    -0.0000042   -0.0000075     0.3701284    0.5263291 
   1.920904000    -0.7078232   -0.7704113    -0.0000056   -0.0000070    -0.0000153   -0.0000062     0.3805564    0.5173973 
   1.940903000    -0.8801849   -0.5231102    -0.0000176   -0.0000003    -0.0000191    0.0000083     0.3991127    0.5094454 
   1.960902000    -0.9699172   -0.2398492    -0.0000044    0.0000215     0.0000113    0.0000251     0.4214751    0.5024437 
   1.980901000    -0.9724755    0.0507135     0.0000198    0.0000074     0.0000193    0.0000058     0.4471699    0.4918130 
   2.000900000    -0.8926162    0.3231440     0.0000087   -0.0000168     0.0000016   -0.0000125     0.4742893    0.4803879 
   2.020899000    -0.7425621    0.5559115    -0.0000105   -0.0000218    -0.0000059   -0.0000144     0.5044787    0.4643577 
   2.040898000    -0.5382242    0.7342254    -0.0000189    0.0000050    -0.0000180    0.0000035     0.5299481    0.4434004 
   2.060897000    -0.2978253    0.8480215    -0.0000107    0.0000157    -0.0000046    0.0000142     0.5542693    0.4246082 
   2.080896000    -0.0389806    0.8929201     0.0000114    0.0000137     0.0000101    0.0000105     0.5767648    0.4089069 
   2.100895000     0.2216334    0.8679817     0.0000181   -0.0000102     0.0000115   -0.0000059     0.6061103    0.3969504 
   2.120894000     0.4679015    0.7745060     0.0000049   -0.0000204     0.0000052   -0.0000100     0.6514219    0.3827792 
   2.140893000     0.6835610    0.6167352    -0.0000150   -0.0000108    -0.0000165   -0.0000147     0.7101266    0.3487766 
   2.160892000     0.8516154    0.4032207    -0.0000200    0.0000062    -0.0000149    0.0000042     0.7570391    0.2807792 
   2.180891000     0.9577264    0.1467363    -0.0000010    0.0000227     0.0000013    0.0000095     0.7711722    0.2042952 
   2.200890000     0.9879525   -0.1415226     0.0000197    0.0000040    -0.0000026    0.0000088     0.7622219    0.1393502 
   2.220889000     0.9354823   -0.4287099     0.0000190   -0.0000124     0.0000078    0.0000106     0.7430378    0.0886377 
   2.240888000     0.7985770   -0.6949401     0.0000013   -0.0000295     0.0000076   -0.0000114     0.7244041    0.0492111 
   2.260887000     0.5839517   -0.9138006    -0.0000238   -0.0000153    -0.0000172   -0.0000040     0.7071299    0.0161600 
   2.280886000     0.3081223   -1.0604200    -0.0000242    0.0000229    -0.0000079    0.0000169     0.6903284   -0.0122683 
   2.300885000    -0.0025424   -1.1166190     0.0000066    0.0000352    -0.0000016    0.0000171     0.6743612   -0.0379250 
   2.320884000    -0.3151774   -1.0736650     0.0000395    0.0000477     0.0000170    0.0000044     0.6577325   -0.0599718 
   2.340883000    -0.5957434   -0.9389185     0.0000294   -0.0000065     0.0000140   -0.0000036     0.6401245   -0.0786393 
   2.360882000    -0.8172733   -0.7308424     0.0000036   -0.0000347     0.0000010    0.0000037     0.6219614   -0.0971582 
   2.380881000    -0.9628384   -0.4748427    -0.0000114   -0.0000298     0.0000040   -0.0000011     0.6004148   -0.1146061 
   2.400880000    -1.0271500   -0.1983519    -0.0000435   -0.0000072    -0.0000177    0.0000032     0.5744915   -0.1230369 
   2.420879000    -1.0124190    0.0734962    -0.0000204    0.0000457     0.0000028    0.0000256     0.5510423   -0.1256122 
   2.440878000    -0.9288480    0.3198681     0.0000304    0.0000145     0.0000339    0.0000043     0.5261681   -0.1193953 
   2.460877000    -0.7906742    0.5265445     0.0000045   -0.0000124     0.0000099   -0.0000232     0.5052153   -0.1006918 
   2.480876000    -0.6131015    0.6849949    -0.0000052   -0.0000033    -0.0000073   -0.0000161     0.4927958   -0.0679169 
   2.500875000    -0.4091080    0.7918133     0.0000097    0.0000076    -0.0000072    0.0000062     0.4974765   -0.0227002 
   2.520874000    -0.1911218    0.8461395     0.0000058   -0.0000184     0.0000059    0.0000019     0.5332810    0.0254223 
   2.540873000     0.0302082    0.8477116    -0.0000209   -0.0000135    -0.0000032    0.0000021     0.6045643    0.0583817 
   2.560872000     0.2458056    0.7973831    -0.0000276    0.0000005     0.0000039    0.0000066     0.6983871    0.0497646 
   2.580871000     0.4452449    0.6969009    -0.0000326    0.0000244    -0.0000065   -0.0000038     0.7843453   -0.0034149 
   2.600870000     0.6178831    0.5480940    -0.0000090    0.0000328     0.0000012    0.0000051     0.8384936   -0.0857209 
   2.620869000     0.7524530    0.3554601     0.0000112    0.0000232    -0.0000073    0.0000073     0.8582003   -0.1744149 
   2.640868000     0.8357790    0.1267050     0.0000183   -0.0000002     0.0000055    0.0000033     0.8531052   -0.2549372 
   2.660867000     0.8559737   -0.1266211     0.0000046   -0.0000114    -0.0000047    0.0000010     0.8315982   -0.3218234 
   2.680866000     0.8025923   -0.3865114    -0.0000121   -0.0000019     0.0000037    0.0000028     0.8031665   -0.3769071 
   2.700865000     0.6705177   -0.6304384    -0.0000095   -0.0000029     0.0000033   -0.0000065     0.7729691   -0.4224386 
   2.720864000     0.4620887   -0.8309627    -0.0000215    0.0000009     0.0000005   -0.0000047     0.7433175   -0.4578100 
   2.740863000     0.1921623   -0.9606208    -0.0000231    0.0000074    -0.0000166   -0.0000048     0.7144400   -0.4873306 
   2.760862000    -0.1131721   -0.9968275    -0.0000150    0.0000309    -0.0000149    0.0000033     0.6879128   -0.5137835 
   2.780861000    -0.4170497   -0.9302731     0.0000158    0.0000275    -0.0000117    0.0000194     0.6612995   -0.5369067 
   2.800860000    -0.6811355   -0.7694368     0.0000196   -0.0000014     0.0000077    0.0000163     0.6352676   -0.5560726 
   2.820859000    -0.8743415   -0.5382729     0.0000046   -0.0000312     0.0000080   -0.0000060     0.6097500   -0.5756055 
   2.840858000    -0.9817727   -0.2692097    -0.0000291   -0.0000232    -0.0000113   -0.0000051     0.5869356   -0.5927696 
   2.860857000    -1.0032800    0.0047040    -0.0000130   -0.0000025    -0.0000060    0.0000012     0.5630219   -0.6086267 
   2.880856000    -0.9495366    0.2581089    -0.0000071   -0.0000013     0.0000009    0.0000022     0.5395421   -0.6240564 
   2.900855000    -0.8382725    0.4743625    -0.0000015    0.0000000     0.0000022    0.0000045     0.5206686   -0.6380859 
   2.920854000    -0.6841556    0.6455567    -0.0000035    0.0000043     0.0000002   -0.0000036     0.4991836   -0.6520896 
   2.940853000    -0.5029411    0.7678474    -0.0000036    0.0000099    -0.0000038    0.0000066     0.4772636   -0.6648568 
   2.960852000    -0.3063689    0.8420543     0.0000030    0.0000075    -0.0000031    0.0000070     0.4550990   -0.6778018 
   2.980851000    -0.1043574    0.8698869     0.0000048    0.0000007    -0.0000083    0.0000045     0.4320897   -0.6866748 
   3.000850000     0.0951894    0.8530264     0.0000007    0.0000047    -0.0000089    0.0000123     0.4101557   -0.6967637 
   3.020849000     0.2857459    0.7935763     0.0000004    0.0000078    -0.0000047    0.0000108     0.3909373   -0.7081181 
   3.040848000     0.4588025    0.6929922    -0.0000009   -0.0000054    -0.0000012    0.0000039     0.3682358   -0.7172604 
   3.060847000     0.6062374    0.5540044     0.0000018   -0.0000061     0.0000011    0.0000093     0.3467785   -0.7236903 
   3.080846000     0.7192718    0.3811384    -0.0000018    0.0000098     0.0000012    0.0000037     0.3276785   -0.7322604 
   3.100845000     0.7896670    0.1810649    -0.0000058    0.0000090    -0.0000005    0.0000000     0.3062176   -0.7401729 
   3.120844000     0.8079614   -0.0373480     0.0000023    0.0000051    -0.0000054    0.0000044     0.2845066   -0.7458812 
